"Freq [GHz]","ang_rad(S(waveport2:1,antenna)) [rad]","ang_rad(S(waveport1:1,antenna)) [rad]"
0.001,1.56953064123053,-1.5721377867873
0.0084975,1.56004109450526,-1.58219531068477
0.015995,1.55055155966707,-1.59225282109476
0.0234925,1.54106205521953,-1.60231030624616
0.03099,1.53157259238589,-1.61236775122454
0.0384875,1.52208318373817,-1.62242514294665
0.045985,1.51259384204776,-1.63248246860559
0.0534825,1.50310458008474,-1.64253971554537
0.06098,1.49361541055336,-1.65259687125407
0.0684775,1.48412634605961,-1.66265392337717
0.075975,1.47463739908882,-1.67271085973578
0.0834725,1.46514858198704,-1.68276766834645
0.09097,1.45565990694408,-1.69282433744141
0.0984675,1.44617138597737,-1.70288085548896
0.105965,1.43668303241917,-1.71293720103227
0.1134625,1.42719486124272,-1.72299336506985
0.12096,1.41770688525328,-1.73304933700584
0.1284575,1.40821911721856,-1.743105104159
0.135955,1.39873156990447,-1.75316065386541
0.1434525,1.3892442560716,-1.76321597347744
0.15095,1.37975718847254,-1.77327105036305
0.1584475,1.3702703798498,-1.7833258719056
0.165945,1.360783842934,-1.79338042550382
0.1734425,1.35129759044242,-1.80343469857196
0.18094,1.34181163507769,-1.81348867854008
0.1884375,1.33232598952663,-1.82354235285436
0.195935,1.32284066645919,-1.83359570897759
0.2034325,1.31335567852747,-1.84364873438961
0.21093,1.30387103836477,-1.85370141658777
0.2184275,1.29438675858475,-1.8637537430875
0.225925,1.28490285178055,-1.87380570142282
0.2334225,1.27541933052396,-1.88385727914693
0.24092,1.26593620736468,-1.89390846383274
0.2484175,1.25645349482949,-1.90395924307343
0.255915,1.24697120542151,-1.91400960448308
0.2634125,1.23748935161946,-1.92405953569721
0.27091,1.22800794587691,-1.93410902437337
0.2784075,1.21852700062158,-1.94415805819171
0.285905,1.2090465282546,-1.95420662485559
0.2934025,1.19956654114982,-1.96425471209216
0.3009,1.19008705165314,-1.97430230765289
0.3083975,1.18060807208174,-1.98434939931424
0.315895,1.1711296147235,-1.99439597487816
0.3233925,1.16165169183627,-2.0044420221727
0.33089,1.15217431564718,-2.01448752905259
0.3383875,1.14269749835206,-2.02453248339977
0.345885,1.13322125211469,-2.03457687312404
0.3533825,1.12374558906623,-2.04462068616352
0.36088,1.11427052130455,-2.0546639104853
0.3683775,1.10479606089356,-2.06470653408594
0.375875,1.09532221986267,-2.07474854499208
0.3833725,1.08584901020607,-2.08478993126091
0.39087,1.07637644388218,-2.09483068098082
0.3983675,1.06690453281303,-2.10487078227184
0.405865,1.05743328888362,-2.11491022328627
0.4133625,1.0479627239414,-2.12494899220913
0.42086,1.03849284979559,-2.13498707725877
0.4283575,1.02902367821668,-2.14502446668734
0.435855,1.0195552209358,-2.15506114878133
0.4433525,1.01008748964417,-2.1650971118621
0.45085,1.00062049599255,-2.17513234428637
0.4583475,0.991154251590669,-2.18516683444674
0.465845,0.981688768006681,-2.19520057077221
0.4733425,0.972224056766629,-2.20523354172863
0.48084,0.962760129353904,-2.21526573581925
0.4883375,0.953296997208731,-2.22529714158517
0.495835,0.943834671727633,-2.23532774760585
0.5033325,0.934373164262936,-2.24535754249956
0.51083,0.924912486122252,-2.25538651492388
0.5183275,0.91545264856799,-2.26541465357616
0.525825,0.905993662816861,-2.27544194719396
0.5333225,0.8965355400394,-2.28546838455555
0.54082,0.887078291359488,-2.29549395448033
0.5483175,0.877621927853888,-2.30551864582931
0.555815,0.868166460551785,-2.31554244750549
0.5633125,0.858711900434333,-2.32556534845437
0.57081,0.849258258434216,-2.33558733766434
0.5783075,0.839805545435204,-2.34560840416709
0.585805,0.830353772271734,-2.35562853703808
0.5933025,0.820902949728486,-2.3656477253969
0.6008,0.81145308853997,-2.37566595840773
0.6082975,0.802004199390122,-2.38568322527969
0.615795,0.792556292911913,-2.39569951526728
0.6232925,0.783109379686956,-2.40571481767072
0.63079,0.773663470245126,-2.41572912183641
0.6382875,0.764218575064193,-2.42574241715724
0.645785,0.754774704569455,-2.43575469307298
0.6532825,0.745331869133385,-2.44576593907069
0.66078,0.735890079075282,-2.455776144685
0.6682775,0.726449344660936,-2.46578529949854
0.675775,0.717009676102292,-2.47579339314225
0.6832725,0.707571083557134,-2.48580041529574
0.69077,0.698133577128769,-2.49580635568761
0.6982675,0.688697166865723,-2.50581120409578
0.705765,0.67926186276144,-2.51581495034785
0.7132625,0.669827674753999,-2.52581758432135
0.72076,0.660394612725832,-2.53581909594413
0.7282575,0.650962686503452,-2.5458194751946
0.735755,0.64153190585719,-2.55581871210207
0.7432525,0.632102280500939,-2.56581679674703
0.75075,0.622673820091914,-2.57581371926141
0.7582475,0.613246534230405,-2.58580946982893
0.765745,0.603820432459555,-2.59580403868529
0.7732425,0.594395524265137,-2.60579741611849
0.78074,0.584971819075338,-2.61578959246909
0.7882375,0.575549326260563,-2.62578055813041
0.795735,0.566128055133231,-2.63577030354888
0.8032325,0.556708014947595,-2.64575881922417
0.81073,0.547289214899559,-2.6557460957095
0.8182275,0.537871664126508,-2.66573212361184
0.825725,0.528455371707151,-2.67571689359215
0.8332225,0.519040346661359,-2.68570039636558
0.84072,0.509626597950031,-2.69568262270166
0.8482175,0.500214134474945,-2.70566356342455
0.855715,0.490802965078643,-2.71564320941322
0.8632125,0.481393098544299,-2.72562155160162
0.87071,0.471984543595615,-2.73559858097888
0.8782075,0.462577308896715,-2.74557428858948
0.885705,0.453171403052048,-2.75554866553345
0.8932025,0.443766834606305,-2.76552170296647
0.9007,0.434363612044338,-2.7754933921001
0.9081975,0.424961743791089,-2.78546372420189
0.915695,0.415561238211526,-2.79543269059555
0.9231925,0.406162103610594,-2.80540028266104
0.93069,0.396764348233163,-2.81536649183477
0.9381875,0.38736798026399,-2.82533130960967
0.945685,0.377973007827693,-2.83529472753535
0.9531825,0.368579438988723,-2.84525673721819
0.96068,0.359187281751355,-2.85521733032145
0.9681775,0.349796544059672,-2.86517649856536
0.975675,0.340407233797578,-2.87513423372726
0.9831725,0.331019358788795,-2.88509052764162
0.99067,0.321632926796889,-2.89504537220018
0.9981675,0.312247945525287,-2.904998759352
1.005665,0.30286442261731,-2.91495068110353
1.0131625,0.293482365656214,-2.92490112951868
1.02066,0.284101782165238,-2.93485009671886
1.0281575,0.27472267960765,-2.94479757488304
1.035655,0.265345065386817,-2.95474355624783
1.0431525,0.255968946846269,-2.96468803310746
1.05065,0.246594331269775,-2.97463099781384
1.0581475,0.237221225881427,-2.9845724427766
1.065645,0.227849637845728,-2.99451236046307
1.0731425,0.218479574267692,-3.00445074339835
1.08064,0.209111042192945,-3.01438758416527
1.0881375,0.199744048607836,-3.02432287540443
1.095635,0.190378600439558,-3.03425660981416
1.1031325,0.181014704556268,-3.04418878015053
1.11063,0.17165236776722,-3.05411937922735
1.1181275,0.162291596822903,-3.06404839991612
1.125625,0.152932398415184,-3.07397583514603
1.1331225,0.143574779177461,-3.08390167790391
1.14062,0.134218745684817,-3.09382592123419
1.1481175,0.124864304454184,-3.10374855823888
1.155615,0.115511461944514,-3.11366958207748
1.1631125,0.106160224556954,-3.12358898596699
1.17061,0.096810598635026,-3.13350676318179
1.1781075,0.0874625904648177,3.13976240012601
1.185605,0.0781162062751738,3.12984789620823
1.1931025,0.0687714522378956,3.1199350387983
1.2006,0.0594283344679466,3.11002383439293
1.2080975,0.0500868590236638,3.10011428943182
1.215595,0.040747031906972,3.09020641029773
1.2230925,0.0314088590636079,3.08030020331661
1.23059,0.0220723463833452,3.07039567475766
1.2380875,0.0127374997002292,3.06049283083345
1.245585,0.00340432479281161,3.05059167770005
1.2530825,-0.0059271726156048,3.04069222145714
1.26058,-0.0152569868567186,3.03079446814811
1.2680775,-0.0245851123169782,3.02089842376021
1.275575,-0.0339115434373232,3.01100409422469
1.2830725,-0.0432362747129226,3.00111148541689
1.29057,-0.0525593006929091,2.99122060315645
1.2980675,-0.0618806159801058,2.98133145320738
1.305565,-0.071200215230752,2.97144404127828
1.3130625,-0.0805180931542218,2.96155837302243
1.32056,-0.0898342445127406,2.95167445403802
1.3280575,-0.0991486641210965,2.94179228986823
1.335555,-0.108461346846348,2.93191188600148
1.3430525,-0.117772287607525,2.92203324787154
1.35055,-0.127081481375332,2.91215638085773
1.3580475,-0.136388923171841,2.90228129028512
1.365545,-0.145694608070186,2.89240798142467
1.3730425,-0.154998531194249,2.88253645949345
1.38054,-0.164300687718346,2.87266672965484
1.3880375,-0.173601072866912,2.86279879701868
1.395535,-0.182899681914173,2.85293266664152
1.4030325,-0.192196510183827,2.8430683435268
1.41053,-0.201491553048714,2.83320583262507
1.4180275,-0.210784805930484,2.82334513883417
1.425525,-0.220076264299268,2.81348626699947
1.4330225,-0.229365923673334,2.80362922191411
1.44052,-0.238653779618757,2.79377400831917
1.4480175,-0.247939827749071,2.78392063090391
1.455515,-0.257224063724926,2.77406909430604
1.4630125,-0.266506483253746,2.76421940311189
1.47051,-0.275787082089375,2.75437156185668
1.4780075,-0.285065856031728,2.74452557502476
1.485505,-0.294342800926441,2.73468144704982
1.4930025,-0.303617912664513,2.72483918231518
1.5005,-0.312891187181951,2.71499878515396
1.5079975,-0.322162620459412,2.70516025984944
1.515495,-0.331432208521841,2.6953236106352
1.5229925,-0.340699947438114,2.68548884169544
1.53049,-0.34996583332067,2.67565595716522
1.5379875,-0.359229862325152,2.66582496113071
1.545485,-0.368492030650037,2.65599585762947
1.5529825,-0.377752334536275,2.6461686506507
1.56048,-0.387010770266915,2.63634334413549
1.5679775,-0.396267334166743,2.62651994197714
1.575475,-0.405522022601909,2.61669844802137
1.5829725,-0.414774831979559,2.60687886606663
1.59047,-0.424025758747463,2.59706119986436
1.5979675,-0.433274799393645,2.58724545311929
1.605465,-0.442521950446014,2.57743162948966
1.6129625,-0.451767208471988,2.56761973258757
1.62046,-0.461010570078126,2.55780976597922
1.6279575,-0.470252031909754,2.5480017331852
1.635455,-0.479491590650594,2.53819563768077
1.6429525,-0.488729243022393,2.52839148289616
1.65045,-0.497964985784548,2.51858927221684
1.6579475,-0.50719881573374,2.50878900898385
1.665445,-0.516430729703562,2.49899069649402
1.6729425,-0.525660724564142,2.48919433800031
1.68044,-0.534888797221785,2.4793999367121
1.6879375,-0.544114944618592,2.46960749579547
1.695435,-0.553339163732101,2.4598170183735
1.7029325,-0.562561451574914,2.45002850752654
1.71043,-0.571781805194334,2.44024196629257
1.7179275,-0.581000221671999,2.43045739766741
1.725425,-0.590216698123515,2.42067480460509
1.7329225,-0.599431231698098,2.41089419001811
1.74042,-0.608643819578209,2.40111555677774
1.7479175,-0.617854458979195,2.39133890771434
1.755415,-0.627063147148931,2.38156424561761
1.7629125,-0.636269881367463,2.37179157323697
1.77041,-0.645474658946653,2.36202089328176
1.7779075,-0.654677477229825,2.35225220842162
1.785405,-0.663878333591413,2.34248552128674
1.7929025,-0.673077225436616,2.3327208344682
1.8004,-0.682274150201044,2.32295815051822
1.8078975,-0.69146910535038,2.3131974719505
1.815395,-0.700662088380031,2.3034388012405
1.8228925,-0.709853096814791,2.29368214082573
1.83039,-0.719042128208502,2.28392749310606
1.8378875,-0.728229180143719,2.27417486044404
1.845385,-0.737414250231376,2.26442424516513
1.8528825,-0.746597336110458,2.25467564955808
1.86038,-0.755778435447668,2.24492907587514
1.8678775,-0.764957545937111,2.23518452633242
1.875375,-0.774134665299965,2.22544200311016
1.8828725,-0.783309791284166,2.21570150835302
1.89037,-0.792482921664089,2.20596304417036
1.8978675,-0.801654054240239,2.19622661263658
1.905365,-0.810823186838942,2.18649221579132
1.9128625,-0.819990317312036,2.17675985563985
1.92036,-0.82915544353657,2.16702953415328
1.9278575,-0.838318563414505,2.15730125326889
1.935355,-0.847479674872421,2.14757501489039
1.9428525,-0.856638775861218,2.13785082088821
1.95035,-0.865795864355836,2.12812867309978
1.9578475,-0.874950938354966,2.11840857332982
1.965345,-0.88410399588077,2.1086905233506
1.9728425,-0.893255034978604,2.09897452490223
1.98034,-0.902404053716747,2.08926057969293
1.9878375,-0.91155105018613,2.0795486893993
1.995335,-0.920696022500072,2.06983885566659
2.0028325,-0.92983896879402,2.06013108010897
2.01033,-0.938979887225293,2.05042536430981
2.0178275,-0.948118775972828,2.0407217098219
2.025325,-0.957255633236934,2.03102011816779
2.0328225,-0.966390457239049,2.02132059083996
2.04032,-0.9755232462215,2.01162312930114
2.0478175,-0.984653998447268,2.00192773498455
2.055315,-0.993782712199761,1.99223440929414
2.0628125,-1.00290938578259,1.98254315360485
2.07031,-1.01203401751933,1.97285396926286
2.0778075,-1.02115660575335,1.96316685758584
2.085305,-1.03027714884754,1.95348181986317
2.0928025,-1.03939564518416,1.9437988573562
2.1003,-1.04851209316461,1.93411797129848
2.1077975,-1.05762649120922,1.92443916289601
2.115295,-1.06673883775712,1.91476243332743
2.1227925,-1.07584913126597,1.90508778374431
2.13029,-1.08495737021184,1.89541521527131
2.1377875,-1.09406355308902,1.88574472900645
2.145285,-1.10316767840984,1.87607632602131
2.1527825,-1.1122697447045,1.86641000736125
2.16028,-1.12136975052093,1.85674577404563
2.1677775,-1.13046769442462,1.84708362706799
2.175275,-1.13956357499847,1.83742356739631
2.1827725,-1.14865739084264,1.82776559597316
2.19027,-1.15774914057445,1.81810971371593
2.1977675,-1.16683882282819,1.80845592151702
2.205265,-1.17592643625503,1.79880422024403
2.2127625,-1.18501197952287,1.78915461073997
2.22026,-1.19409545131627,1.77950709382339
2.2277575,-1.20317685033628,1.76986167028863
2.235255,-1.21225617530037,1.76021834090597
2.2427525,-1.22133342494232,1.75057710642178
2.25025,-1.23040859801214,1.74093796755876
2.2577475,-1.23948169327595,1.73130092501602
2.265245,-1.24855270951593,1.72166597946932
2.2727425,-1.25762164553022,1.71203313157117
2.28024,-1.26668850013286,1.70240238195105
2.2877375,-1.2757532721537,1.6927737312155
2.295235,-1.2848159604384,1.68314717994831
2.3027325,-1.2938765638483,1.67352272871064
2.31023,-1.30293508126043,1.66390037804119
2.3177275,-1.31199151156742,1.6542801284563
2.325225,-1.3210458536775,1.64466198045012
2.3327225,-1.33009810651448,1.63504593449472
2.34022,-1.33914826901767,1.62543199104018
2.3477175,-1.34819634014189,1.6158201505148
2.355215,-1.35724231885748,1.60621041332512
2.3627125,-1.36628620415027,1.5966027798561
2.37021,-1.37532799502157,1.58699725047118
2.3777075,-1.38436769048818,1.57739382551243
2.385205,-1.39340528958242,1.5677925053006
2.3927025,-1.40244079135212,1.55819329013528
2.4002,-1.41147419486066,1.54859618029491
2.4076975,-1.42050549918699,1.53900117603693
2.415195,-1.42953470342566,1.52940827759785
2.4226925,-1.43856180668688,1.51981748519331
2.43019,-1.44758680809653,1.51022879901816
2.4376875,-1.45660970679625,1.50064221924654
2.445185,-1.46563050194348,1.49105774603195
2.4526825,-1.47464919271151,1.48147537950727
2.46018,-1.48366577828958,1.47189511978488
2.4676775,-1.49268025788294,1.46231696695667
2.475175,-1.50169263071291,1.45274092109408
2.4826725,-1.51070289601701,1.44316698224817
2.49017,-1.51971105304903,1.43359515044966
2.4976675,-1.52871710107912,1.42402542570895
2.505165,-1.5377210393939,1.41445780801613
2.5126625,-1.54672286729658,1.40489229734106
2.52016,-1.55572258410708,1.39532889363335
2.5276575,-1.56472018916213,1.38576759682238
2.535155,-1.57371568181542,1.37620840681733
2.5426525,-1.58270906143771,1.36665132350718
2.55015,-1.59170032741701,1.3570963467607
2.5576475,-1.60068947915867,1.34754347642648
2.565145,-1.60967651608556,1.33799271233289
2.5726425,-1.61866143763824,1.32844405428808
2.58014,-1.62764424327511,1.31889750208001
2.5876375,-1.63662493247254,1.30935305547635
2.595135,-1.64560350472512,1.29981071422453
2.6026325,-1.65457995954576,1.29027047805168
2.61013,-1.66355429646592,1.28073234666461
2.6176275,-1.67252651503579,1.27119631974975
2.625125,-1.68149661482448,1.26166239697314
2.6326225,-1.69046459542022,1.25213057798038
2.64012,-1.69943045643058,1.24260086239658
2.6476175,-1.70839419748263,1.23307324982627
2.655115,-1.71735581822324,1.22354773985343
2.6626125,-1.72631531831923,1.21402433204132
2.67011,-1.73527269745762,1.20450302593252
2.6776075,-1.74422795534587,1.19498382104877
2.685105,-1.7531810917121,1.18546671689096
2.6926025,-1.76213210630535,1.17595171293903
2.7001,-1.77108099889581,1.16643880865188
2.7075975,-1.78002776927507,1.15692800346729
2.715095,-1.78897241725641,1.14741929680184
2.7225925,-1.79791494267502,1.1379126880508
2.73009,-1.80685534538826,1.12840817658805
2.7375875,-1.81579362527599,1.11890576176596
2.745085,-1.82472978224078,1.1094054429153
2.7525825,-1.83366381620824,1.09990721934511
2.76008,-1.84259572712725,1.09041109034262
2.7675775,-1.85152551497033,1.0809170551731
2.775075,-1.86045317973383,1.07142511307975
2.7825725,-1.86937872143832,1.06193526328358
2.79007,-1.87830214012885,1.0524475049833
2.7975675,-1.88722343587525,1.04296183735513
2.805065,-1.89614260877248,1.03347825955273
2.8125625,-1.90505965894088,1.02399677070702
2.82006,-1.91397458652656,1.01451736992607
2.8275575,-1.92288739170168,1.0050400562949
2.835055,-1.93179807466479,0.995564828875408
2.8425525,-1.94070663564117,0.986091686706142
2.85005,-1.94961307488313,0.976620628802191
2.8575475,-1.9585173926704,0.967151654155013
2.865045,-1.96741958931043,0.957684761732269
2.8725425,-1.97631966513878,0.948219950477662
2.88004,-1.98521762051941,0.938757219310767
2.8875375,-1.99411345584509,0.92929656712686
2.895035,-2.00300717153772,0.919837992796743
2.9025325,-2.01189876804872,0.910381495166567
2.91003,-2.02078824585937,0.900927073057654
2.9175275,-2.02967560548119,0.89147472526631
2.925025,-2.03856084745629,0.882024450563642
2.9325225,-2.04744397235777,0.872576247695369
2.94002,-2.0563249807901,0.863130115381633
2.9475175,-2.06520387338945,0.853686052316802
2.955015,-2.07408065082413,0.844244057169278
2.9625125,-2.08295531379495,0.834804128581296
2.97001,-2.09182786303559,0.825366265168726
2.9775075,-2.10069829931303,0.815930465520867
2.985005,-2.10956662342791,0.806496728200247
2.9925025,-2.11843283621493,0.797065051742411
3,-2.12729693854327,0.787635434655717

