"Freq [GHz]","ang_rad(S(waveport2:1,antenna)) [rad]","ang_rad(S(waveport1:1,antenna)) [rad]"
0.001,-1.57203210862117,1.56944652796488
0.0084975,-1.58129736063733,1.55932639568738
0.015995,-1.59056260839883,1.54920628267048
0.0234925,-1.59982782653316,1.53908619393808
0.03099,-1.60909300327496,1.52896614311762
0.0384875,-1.6183581261432,1.51884614235957
0.045985,-1.62762318250525,1.50872620361172
0.0534825,-1.63688815971443,1.49860633868777
0.06098,-1.6461530451702,1.48848655925651
0.0684775,-1.65541782635476,1.47836687682101
0.075975,-1.66468249085894,1.46824730269616
0.0834725,-1.67394702640276,1.45812784798609
0.09097,-1.68321142085312,1.44800852356143
0.0984675,-1.69247566223993,1.43788934003696
0.105965,-1.70173971913724,1.4277703168414
0.1134625,-1.71100359184372,1.41765146347492
0.12096,-1.72026727227842,1.4075327900316
0.1284575,-1.72953074759553,1.39741430835019
0.135955,-1.73879400500671,1.38729603025545
0.1434525,-1.74805703177214,1.37717796755798
0.15095,-1.75731981519472,1.36706013205383
0.1584475,-1.76658234261607,1.35694253552401
0.165945,-1.77584460141406,1.346825189734
0.1734425,-1.78510657900118,1.33670810643313
0.18094,-1.79436826282365,1.32659129735399
0.1884375,-1.80362964036099,1.31647477421176
0.195935,-1.81289069912592,1.30635854870359
0.2034325,-1.82215142666458,1.29624263250794
0.21093,-1.83141181055686,1.28612703728386
0.2184275,-1.84067183841697,1.27601177467039
0.225925,-1.84993149789405,1.26589685628583
0.2334225,-1.85919077667285,1.25578229372705
0.24092,-1.86844966247458,1.24566809856886
0.2484175,-1.87770814305769,1.23555428236332
0.255915,-1.88696620621875,1.22544085663903
0.2634125,-1.89622383979333,1.21532783290048
0.27091,-1.90548103165692,1.20521522262738
0.2784075,-1.91473776972589,1.195103037274
0.285905,-1.92399404195835,1.18499128826848
0.2934025,-1.9332498363552,1.17487998701218
0.3009,-1.94250514096097,1.16476914487904
0.3083975,-1.95175994386488,1.15465877321489
0.315895,-1.96101423320168,1.14454888333682
0.3233925,-1.97026799715271,1.13443948653256
0.33089,-1.97952122394674,1.12433059405978
0.3383875,-1.98877390186099,1.1142222171455
0.345885,-1.99802601922201,1.10411436698546
0.3533825,-2.00727756440665,1.09400705474347
0.36088,-2.01652852584294,1.08390029155079
0.3683775,-2.02577889201103,1.07379408850553
0.375875,-2.03502865144408,1.06368845667204
0.3833725,-2.04427779272913,1.05358340708029
0.39087,-2.05352630450804,1.04347895072527
0.3983675,-2.06277417547829,1.03337509856643
0.405865,-2.07202139439388,1.02327186152703
0.4133625,-2.08126795006621,1.01316925049363
0.42086,-2.09051383136482,1.00306727631545
0.4283575,-2.09975902721833,0.992965949803834
0.435855,-2.10900352661516,0.982865281731685
0.4433525,-2.11824731860438,0.972765282832895
0.45085,-2.12749039229647,0.962665963801804
0.4583475,-2.13673273686412,0.952567335292646
0.465845,-2.14597434154297,0.942469407919016
0.4733425,-2.15521519563233,0.932372192253338
0.48084,-2.16445528849597,0.922275698826336
0.4883375,-2.17369460956279,0.912179938126517
0.495835,-2.18293314832753,0.90208492059966
0.5033325,-2.19217089435147,0.891990656648308
0.51083,-2.20140783726309,0.881897156631275
0.5183275,-2.21064396675871,0.871804430863147
0.525825,-2.21987927260318,0.861712489613807
0.5333225,-2.22911374463043,0.851621343107949
0.54082,-2.23834737274417,0.841531001524616
0.5483175,-2.24758014691838,0.831441474996732
0.555815,-2.25681205719799,0.82135277361065
0.5633125,-2.26604309369935,0.811264907405701
0.57081,-2.27527324661083,0.801177886373757
0.5783075,-2.28450250619332,0.791091720458795
0.585805,-2.29373086278076,0.781006419556477
0.5933025,-2.30295830678062,0.770921993513724
0.6008,-2.31218482867435,0.760838452128314
0.6082975,-2.32141041901791,0.750755805148474
0.615795,-2.33063506844212,0.740674062272487
0.6232925,-2.33985876765315,0.730593233148308
0.63079,-2.34908150743292,0.720513327373182
0.6382875,-2.35830327863945,0.710434354493271
0.645785,-2.36752407220726,0.700356324003295
0.6532825,-2.37674387914773,0.690279245346177
0.66078,-2.3859626905494,0.68020312791269
0.6682775,-2.39518049757835,0.670127981041125
0.675775,-2.40439729147841,0.660053814016954
0.6832725,-2.41361306357152,0.649980636072513
0.69077,-2.42282780525798,0.639908456386679
0.6982675,-2.43204150801664,0.629837284084572
0.705765,-2.44125416340519,0.61976712823725
0.7132625,-2.45046576306035,0.609697997861421
0.72076,-2.45967629869805,0.599629901919162
0.7282575,-2.46888576211362,0.589562849317644
0.735755,-2.47809414518191,0.579496848908866
0.7432525,-2.48730143985749,0.569431909489398
0.75075,-2.4965076381747,0.559368039800133
0.7582475,-2.50571273224779,0.549305248526045
0.765745,-2.514916714271,0.539243544295959
0.7732425,-2.52411957651862,0.52918293568232
0.78074,-2.53332131134502,0.519123431200991
0.7882375,-2.54252191118471,0.50906503931103
0.795735,-2.55172136855232,0.499007768414504
0.8032325,-2.56091967604261,0.48895162685629
0.81073,-2.57011682633044,0.478896622923897
0.8182275,-2.57931281217075,0.468842764847292
0.825725,-2.58850762639846,0.458790060798734
0.8332225,-2.59770126192839,0.448738518892617
0.84072,-2.60689371175523,0.438688147185321
0.8482175,-2.61608496895336,0.428638953675073
0.855715,-2.62527502667672,0.418590946301815
0.8632125,-2.63446387815873,0.408544132947079
0.87071,-2.64365151671204,0.398498521433874
0.8782075,-2.65283793572842,0.388454119526579
0.885705,-2.66202312867851,0.37841093493084
0.8932025,-2.67120708911164,0.368368975293489
0.9007,-2.68038981065556,0.358328248202452
0.9081975,-2.68957128701625,0.348288761186683
0.915695,-2.6987515119776,0.338250521716095
0.9231925,-2.70793047940115,0.328213537201503
0.93069,-2.7171081832258,0.318177814994576
0.9381875,-2.72628461746749,0.308143362387798
0.945685,-2.73545977621887,0.29811018661443
0.9531825,-2.74463365364896,0.288078294848492
0.96068,-2.75380624400278,0.278047694204743
0.9681775,-2.762977541601,0.268018391738674
0.975675,-2.77214754083952,0.257990394446504
0.9831725,-2.78131623618908,0.247963709265196
0.99067,-2.79048362219483,0.237938343072464
0.9981675,-2.79964969347592,0.227914302686804
1.005665,-2.80881444472503,0.217891594867519
1.0131625,-2.81797787070789,0.207870226314762
1.02066,-2.82713996626285,0.197850203669586
1.0281575,-2.83630072630036,0.187831533513992
1.035655,-2.84546014580243,0.177814222370998
1.0431525,-2.85461821982221,0.167798276704707
1.05065,-2.86377494348333,0.157783702920385
1.0581475,-2.87293031197948,0.147770507364546
1.065645,-2.88208432057377,0.13775869632505
1.0731425,-2.89123696459816,0.127748276031196
1.08064,-2.90038823945295,0.117739252653836
1.0881375,-2.9095381406061,0.107731632305489
1.095635,-2.91868666359267,0.0977254210404648
1.1031325,-2.92783380401419,0.0877206248549909
1.11063,-2.93697955753804,0.0777172496873543
1.1181275,-2.94612391989677,0.0677153014180441
1.125625,-2.95526688688752,0.0577147858699018
1.1331225,-2.96440845437127,0.0477157088082835
1.14062,-2.97354861827222,0.0377180759412224
1.1481175,-2.98268737457711,0.0277218929196037
1.155615,-2.99182471933448,0.0177271653373428
1.1631125,-3.00096064865402,0.00773389873157317
1.17061,-3.0100951587058,-0.00225790141716258
1.1781075,-3.01922824571959,-0.0122482296847109
1.185605,-3.02835990598412,-0.022237080703103
1.1931025,-3.03749013584631,-0.0322244491603391
1.2006,-3.04661893171054,-0.0422103298001724
1.2080975,-3.0557462900379,-0.0521947174218809
1.215595,-3.06487220734539,-0.0621776068800358
1.2230925,-3.07399668020519,-0.0721589930842644
1.23059,-3.08311970524382,-0.0821388709990039
1.2380875,-3.09224127914141,-0.0921172356432518
1.245585,-3.10136139863085,-0.10209408209031
1.2530825,-3.11048006049702,-0.11206940546752
1.26058,-3.11959726157596,-0.122043200955997
1.2680775,-3.12871299875404,-0.132015463790356
1.275575,-3.13782726896718,-0.141986189258427
1.2830725,3.13624523797961,-0.151955372700975
1.29057,3.12713391069471,-0.161923009511409
1.2980675,3.11802405927823,-0.171889095135482
1.305565,3.10891568660455,-0.181853625070989
1.3130625,3.09980879550271,-0.191816594867465
1.32056,3.09070338875731,-0.201778000125866
1.3280575,3.08159946910935,-0.211737836498257
1.335555,3.07249703925708,-0.221696099687486
1.3430525,3.06339610185691,-0.23165278544686
1.35055,3.05429665952424,-0.241607889579808
1.3580475,3.04519871483435,-0.251561407939548
1.365545,3.03610227032331,-0.261513336428743
1.3730425,3.02700732848881,-0.271463670999157
1.38054,3.01791389179107,-0.281412407651301
1.3880375,3.00882196265372,-0.29135954243408
1.395535,2.99973154346471,-0.301305071444433
1.4030325,2.99064263657717,-0.311248990826969
1.41053,2.98155524431031,-0.321191296773602
1.4180275,2.97246936895034,-0.331131985523173
1.425525,2.96338501275132,-0.341071053361079
1.4330225,2.95430217793608,-0.351008496618893
1.44052,2.94522086669711,-0.360944311673979
1.4480175,2.93614108119746,-0.370878494949107
1.455515,2.92706282357164,-0.38081104291206
1.4630125,2.9179860959265,-0.390741952075241
1.47051,2.90891090034212,-0.400671218995279
1.4780075,2.89983723887273,-0.41059884027262
1.485505,2.89076511354759,-0.420524812551135
1.4930025,2.88169452637186,-0.430449132517702
1.5005,2.87262547932752,-0.440371796901804
1.5079975,2.86355797437425,-0.450292802475113
1.515495,2.85449201345032,-0.460212146051075
1.5229925,2.84542759847344,-0.470129824484493
1.53049,2.83636473134168,-0.480045834671106
1.5379875,2.82730341393433,-0.489960173547167
1.545485,2.81824364811281,-0.499872838089015
1.5529825,2.80918543572145,-0.509783825312651
1.56048,2.80012877858848,-0.519693132273306
1.5679775,2.7910736785268,-0.529600756065012
1.575475,2.78202013733488,-0.539506693820166
1.5829725,2.77296815679761,-0.549410942709095
1.59047,2.76391773868716,-0.55931349993962
1.5979675,2.7548688847638,-0.569214362756617
1.605465,2.74582159677678,-0.579113528441577
1.6129625,2.73677587646513,-0.589010994312165
1.62046,2.72773172555852,-0.598906757721774
1.6279575,2.71868914577806,-0.608800816059087
1.635455,2.70964813883714,-0.618693166747628
1.6429525,2.70060870644224,-0.628583807245315
1.65045,2.69157085029373,-0.638472735044017
1.6579475,2.68253457208667,-0.648359947669103
1.665445,2.67349987351161,-0.658245442678995
1.6729425,2.66446675625536,-0.668129217664722
1.68044,2.65543522200181,-0.678011270249467
1.6879375,2.64640527243265,-0.687891598088118
1.695435,2.63737690922818,-0.69777019886682
1.7029325,2.62835013406803,-0.707647070302525
1.71043,2.61932494863193,-0.717522210142542
1.7179275,2.61030135460046,-0.727395616164087
1.725425,2.60127935365574,-0.737267286173834
1.7329225,2.59225894748219,-0.747137218007465
1.74042,2.58324013776725,-0.757005409529225
1.7479175,2.57422292620206,-0.766871858631468
1.755415,2.56520731448214,-0.776736563234215
1.7629125,2.55619330430815,-0.786599521284705
1.77041,2.54718089738647,-0.796460730756949
1.7779075,2.53817009542996,-0.806320189651285
1.785405,2.52916090015853,-0.816177895993938
1.7929025,2.52015331329988,-0.826033847836572
1.8004,2.51114733659003,-0.835888043255854
1.8078975,2.50214297177406,-0.845740480353011
1.815395,2.49314022060662,-0.85559115725339
1.8228925,2.48413908485262,-0.86544007210603
1.83039,2.47513956628775,-0.875287223083217
1.8378875,2.46614166669914,-0.885132608380058
1.845385,2.45714538788586,-0.894976226214046
1.8528825,2.44815073165952,-0.904818074824632
1.86038,2.43915769984482,-0.914658152472801
1.8678775,2.43016629428004,-0.924496457440645
1.875375,2.42117651681764,-0.93433298803094
1.8828725,2.41218836932471,-0.94416774256673
1.89037,2.40320185368348,-0.954000719390905
1.8978675,2.39421697179183,-0.96383191686579
1.905365,2.38523372556377,-0.973661333372736
1.9128625,2.37625211692985,-0.983488967311705
1.92036,2.36727214783769,-0.993314817100868
1.9278575,2.35829382025232,-1.0031388811762
1.935355,2.3493171361567,-1.0129611579911
1.9428525,2.34034209755207,-1.02278164601595
1.95035,2.33136870645837,-1.03260034373777
1.9578475,2.32239696491461,-1.04241724965981
1.965345,2.31342687497925,-1.05223236230115
1.9728425,2.30445843873058,-1.06204568019636
1.98034,2.29549165826702,-1.07185720189506
1.9878375,2.28652653570746,-1.0816669259616
1.995335,2.27756307319162,-1.09147485097469
2.0028325,2.26860127288029,-1.10128097552698
2.01033,2.25964113695567,-1.11108529822476
2.0178275,2.25068266762159,-1.12088781768757
2.025325,2.24172586710383,-1.13068853254785
2.0328225,2.23277073765033,-1.1404874414506
2.04032,2.22381728153141,-1.15028454305305
2.0478175,2.21486550104003,-1.16007983602428
2.055315,2.20591539849196,-1.16987331904493
2.0628125,2.19696697622595,-1.17966499080683
2.07031,2.18802023660395,-1.18945485001273
2.0778075,2.17907518201126,-1.19924289537591
2.085305,2.17013181485662,-1.20902912561995
2.0928025,2.16119013757242,-1.21881353947835
2.1003,2.15225015261476,-1.22859613569425
2.1077975,2.14331186246354,-1.23837691302014
2.115295,2.1343752696226,-1.24815587021759
2.1227925,2.12544037661974,-1.25793300605691
2.13029,2.11650718600681,-1.26770831931691
2.1377875,2.10757570035971,-1.27748180878461
2.145285,2.09864592227845,-1.28725347325498
2.1527825,2.08971785438716,-1.29702331153066
2.16028,2.08079149933404,-1.30679132242173
2.1677775,2.07186685979141,-1.31655750474544
2.175275,2.0629439384556,-1.32632185732596
2.1827725,2.05402273804698,-1.33608437899417
2.19027,2.04510326130981,-1.3458450685874
2.1977675,2.03618551101223,-1.35560392494922
2.205265,2.02726948994614,-1.36536094692921
2.2127625,2.01835520092706,-1.37511613338278
2.22026,2.00944264679405,-1.38486948317092
2.2277575,2.00053183040957,-1.39462099516002
2.235255,1.99162275465927,-1.40437066822169
2.2427525,1.98271542245189,-1.41411850123258
2.25025,1.97380983671902,-1.42386449307417
2.2577475,1.96490600041493,-1.43360864263263
2.265245,1.95600391651635,-1.44335094879865
2.2727425,1.94710358802225,-1.45309141046728
2.28024,1.93820501795356,-1.46283002653778
2.2877375,1.92930820935297,-1.47256679591349
2.295235,1.9204131652846,-1.48230171750169
2.3027325,1.91151988883374,-1.49203479021345
2.31023,1.90262838310655,-1.50176601296358
2.3177275,1.89373865122974,-1.51149538467043
2.325225,1.88485069635022,-1.52122290425586
2.3327225,1.87596452163478,-1.53094857064512
2.34022,1.86708013026974,-1.54067238276673
2.3477175,1.85819752546053,-1.55039433955246
2.355215,1.84931671043135,-1.56011443993723
2.3627125,1.84043768842474,-1.56983268285901
2.37021,1.83156046270116,-1.57954906725884
2.3777075,1.82268503653861,-1.58926359208073
2.385205,1.81381141323211,-1.59897625627164
2.3927025,1.8049395960933,-1.60868705878143
2.4002,1.79606958844997,-1.61839599856287
2.4076975,1.78720139364554,-1.62810307457159
2.415195,1.77833501503859,-1.63780828576611
2.4226925,1.76947045600234,-1.64751163110781
2.43019,1.76060771992414,-1.65721310956097
2.4376875,1.7517468102049,-1.66691272009276
2.445185,1.7428877302586,-1.67661046167331
2.4526825,1.73403048351167,-1.68630633327571
2.46018,1.72517507340245,-1.69600033387605
2.4676775,1.71632150338058,-1.70569246245351
2.475175,1.70746977690643,-1.71538271799041
2.4826725,1.69861989745047,-1.72507109947226
2.49017,1.68977186849265,-1.73475760588787
2.4976675,1.68092569352177,-1.74444223622942
2.505165,1.67208137603482,-1.75412498949258
2.5126625,1.66323891953633,-1.76380586467658
2.52016,1.65439832753772,-1.77348486078435
2.5276575,1.64555960355659,-1.78316197682267
2.535155,1.63672275111604,-1.79283721180224
2.5426525,1.62788777374396,-1.80251056473788
2.55015,1.61905467497234,-1.81218203464867
2.5576475,1.61022345833652,-1.82185162055808
2.565145,1.60139412737446,-1.83151932149418
2.5726425,1.59256668562601,-1.84118513648979
2.58014,1.58374113663213,-1.85084906458268
2.5876375,1.57491748393416,-1.86051110481576
2.595135,1.56609573107302,-1.87017125623732
2.6026325,1.55727588158841,-1.87982951790118
2.61013,1.54845793901808,-1.88948588886697
2.6176275,1.53964190689695,-1.89914036820034
2.625125,1.53082778875635,-1.90879295497321
2.6326225,1.52201558812318,-1.918443648264
2.64012,1.51320530851909,-1.92809244715794
2.6476175,1.50439695345962,-1.93773935074728
2.655115,1.4955905264534,-1.9473843581316
2.6626125,1.48678603100125,-1.9570274684181
2.67011,1.47798347059534,-1.96666868072189
2.6776075,1.46918284871832,-1.97630799416629
2.685105,1.46038416884246,-1.98594540788316
2.6926025,1.4515874344287,-1.9955809210132
2.7001,1.44279264892587,-2.00521453270632
2.7075975,1.43399981576969,-2.01484624212192
2.715095,1.42520893838192,-2.02447604842932
2.7225925,1.41642002016944,-2.03410395080806
2.73009,1.40763306452333,-2.04372994844829
2.7375875,1.39884807481794,-2.05335404055113
2.745085,1.39006505441,-2.06297622632909
2.7525825,1.38128400663762,-2.07259650500644
2.76008,1.37250493481943,-2.08221487581962
2.7675775,1.36372784225357,-2.09183133801765
2.775075,1.35495273221679,-2.10144589086255
2.7825725,1.34617960796345,-2.11105853362979
2.79007,1.33740847272462,-2.12066926560868
2.7975675,1.32863932970707,-2.13027808610288
2.805065,1.31987218209234,-2.13988499443081
2.8125625,1.31110703303575,-2.14948998992613
2.82006,1.30234388566542,-2.15909307193821
2.8275575,1.29358274308133,-2.16869423983261
2.835055,1.28482360835432,-2.17829349299159
2.8425525,1.2760664845251,-2.18789083081456
2.85005,1.2673113746033,-2.19748625271864
2.8575475,1.25855828156643,-2.20707975813915
2.865045,1.24980720835895,-2.2166713465301
2.8725425,1.24105815789127,-2.22626101736479
2.88004,1.23231113303872,-2.2358487701363
2.8875375,1.2235661366406,-2.24543460435802
2.895035,1.21482317149918,-2.25501851956427
2.9025325,1.20608224037868,-2.2646005153108
2.91003,1.19734334600432,-2.27418059117538
2.9175275,1.18860649106129,-2.28375874675839
2.925025,1.17987167819376,-2.29333498168339
2.9325225,1.17113891000392,-2.3029092955977
2.94002,1.16240818905094,-2.31248168817305
2.9475175,1.15367951785001,-2.32205215910612
2.955015,1.14495289887132,-2.33162070811919
2.9625125,1.1362283345391,-2.34118733496078
2.97001,1.12750582723061,-2.35075203940623
2.9775075,1.11878537927518,-2.36031482125839
2.985005,1.11006699295316,-2.36987568034819
2.9925025,1.10135067049502,-2.37943461653538
3,1.0926364140803,-2.3889916297091

