"Freq [GHz]","ang_rad(S(waveport2:1,antenna)) [rad]","ang_rad(S(waveport1:1,antenna)) [rad]"
0.001,1.5695472466607,-1.57222958215064
0.0084975,1.56018192599465,-1.58297505884318
0.015995,1.55081664958614,-1.59372054296813
0.0234925,1.54145141718417,-1.60446598790075
0.03099,1.53208624475054,-1.61521137173151
0.0384875,1.5227211503656,-1.62595667450991
0.045985,1.51335615246046,-1.63670187667416
0.0534825,1.50399126951415,-1.64744695889121
0.06098,1.49462651996246,-1.65819190204038
0.0684775,1.48526192215689,-1.66893668722786
0.075975,1.47589749433916,-1.67968129581012
0.0834725,1.46653325462163,-1.69042570942055
0.09097,1.45716922097024,-1.70116990999724
0.0984675,1.44780541118869,-1.71191387981117
0.105965,1.43844183875056,-1.72265758189958
0.1134625,1.42907852870505,-1.73340100646322
0.12096,1.41971550094586,-1.74414413843585
0.1284575,1.41035277386593,-1.75488695842783
0.135955,1.40099036586218,-1.76562944709072
0.1434525,1.39162829532784,-1.77637158511229
0.15095,1.38226658064669,-1.78711335321313
0.1584475,1.37290524018863,-1.79785473214474
0.165945,1.36354429230612,-1.80859570268824
0.1734425,1.35418375533115,-1.81933624565384
0.18094,1.34482364757274,-1.83007634188057
0.1884375,1.33546398731476,-1.84081597223645
0.195935,1.32610479281387,-1.85155511761876
0.2034325,1.31674608229779,-1.86229375895453
0.21093,1.30738787396359,-1.87303187720115
0.2184275,1.2980301859761,-1.88376945334703
0.225925,1.28867303646647,-1.89450646841239
0.2334225,1.27931644353069,-1.90524290345004
0.24092,1.26996042522826,-1.9159787395462
0.2484175,1.26060499958084,-1.92671395782144
0.255915,1.25125018457093,-1.93744853943152
0.2634125,1.24189599814064,-1.94818246556831
0.27091,1.23254245819042,-1.95891571746074
0.2784075,1.22318958257786,-1.96964827637571
0.285905,1.21383738911649,-1.98038012361906
0.2934025,1.20448589557459,-1.9911112405365
0.3009,1.19513511967402,-2.00184160851453
0.3083975,1.18578507908908,-2.01257120898144
0.315895,1.17643579144538,-2.02330002340824
0.3233925,1.16708727431872,-2.03402803330959
0.33089,1.15773954523396,-2.04475522024478
0.3383875,1.14839262166396,-2.05548156581864
0.345885,1.13904652102846,-2.06620705168249
0.3533825,1.12970126069304,-2.07693165953511
0.36088,1.12035685796803,-2.08765537112361
0.3683775,1.11101333010751,-2.09837816824442
0.375875,1.10167069430823,-2.10910003274415
0.3833725,1.09232896770858,-2.11982094652056
0.39087,1.08298816738763,-2.13054089152345
0.3983675,1.07364831036409,-2.14125984975556
0.405865,1.06430941359531,-2.15197780327347
0.4133625,1.05497149397636,-2.16269473418851
0.42086,1.04563456833898,-2.1734106246676
0.4283575,1.03629865345072,-2.18412545693419
0.435855,1.0269637660139,-2.19483921326908
0.4433525,1.01762992266478,-2.20555187601133
0.45085,1.00829713997255,-2.21626342755907
0.4583475,0.99896543443849,-2.22697385037039
0.465845,0.989634822495053,-2.23768312696414
0.4733425,0.980305320504976,-2.24839123992081
0.48084,0.97097694476042,-2.25909817188334
0.4883375,0.961649711482113,-2.26980390555792
0.495835,0.952323636818504,-2.28050842371482
0.5033325,0.942998736844933,-2.29121170918919
0.51083,0.933675027562814,-2.30191374488186
0.5183275,0.924352524898826,-2.31261451376009
0.525825,0.915031244704121,-2.3233139988584
0.5333225,0.905711202753547,-2.33401218327932
0.54082,0.896392414744878,-2.34470905019411
0.5483175,0.88707489629806,-2.35540458284357
0.555815,0.877758662954476,-2.36609876453875
0.5633125,0.868443730176214,-2.37679157866168
0.57081,0.859130113345353,-2.38748300866614
0.5783075,0.849817827763269,-2.39817303807828
0.585805,0.840506888649939,-2.40886165049744
0.5933025,0.831197311143278,-2.41954882959677
0.6008,0.821889110298471,-2.43023455912393
0.6082975,0.812582301087333,-2.44091882290178
0.615795,0.803276898397673,-2.45160160482908
0.6232925,0.793972917032682,-2.46228288888106
0.63079,0.78467037171032,-2.47296265911017
0.6382875,0.775369277062734,-2.48364089964665
0.645785,0.766069647635675,-2.49431759469919
0.6532825,0.756771497887941,-2.50499272855555
0.66078,0.747474842190823,-2.51566628558316
0.6682775,0.738179694827575,-2.52633825022973
0.675775,0.728886069992891,-2.53700860702383
0.6832725,0.719593981792401,-2.54767734057549
0.69077,0.710303444242177,-2.55834443557673
0.6982675,0.701014471268253,-2.56900987680218
0.705765,0.691727076706166,-2.57967364910959
0.7132625,0.682441274300501,-2.59033573744038
0.72076,0.673157077704461,-2.60099612682016
0.7282575,0.663874500479437,-2.61165480235926
0.735755,0.65459355609461,-2.62231174925327
0.7432525,0.645314257926551,-2.63296695278347
0.75075,0.636036619258845,-2.64362039831739
0.7582475,0.626760653281725,-2.65427207130923
0.765745,0.617486373091721,-2.66492195730039
0.7732425,0.608213791691323,-2.67557004191987
0.78074,0.598942921988659,-2.68621631088475
0.7882375,0.589673776797186,-2.69686075000062
0.795735,0.580406368835392,-2.70750334516202
0.8032325,0.571140710726523,-2.71814408235282
0.81073,0.561876814998308,-2.72878294764667
0.8182275,0.552614694082711,-2.73941992720737
0.825725,0.543354360315689,-2.75005500728927
0.8332225,0.534095825936971,-2.76068817423762
0.84072,0.524839103089841,-2.77131941448896
0.8482175,0.515584203820944,-2.78194871457147
0.855715,0.506331140080104,-2.7925760611053
0.8632125,0.497079923720146,-2.80320144080292
0.87071,0.487830566496748,-2.81382484046942
0.8782075,0.478583080068292,-2.82444624700284
0.885705,0.469337475995737,-2.83506564739449
0.8932025,0.460093765742499,-2.84568302872917
0.9007,0.450851960674354,-2.85629837818556
0.9081975,0.441612072059341,-2.86691168303636
0.915695,0.43237411106769,-2.87752293064869
0.9231925,0.423138088771757,-2.8881321084842
0.93069,0.413904016145972,-2.89873920409944
0.9381875,0.404671904066804,-2.90934420514597
0.945685,0.395441763312733,-2.91994709937067
0.9531825,0.38621360456424,-2.93054787461591
0.96068,0.376987438403805,-2.94114651881973
0.9681775,0.367763275315924,-2.95174302001606
0.975675,0.358541125687131,-2.96233736633488
0.9831725,0.349320999806035,-2.97292954600241
0.99067,0.340102907863375,-2.98351954734121
0.9981675,0.330886859952078,-2.9941073587704
1.005665,0.321672866067333,-3.00469296880574
1.0131625,0.312460936106681,-3.01527636605979
1.02066,0.303251079870111,-3.02585753924202
1.0281575,0.294043307060167,-3.03643647715889
1.035655,0.284837627282075,-3.04701316871398
1.0431525,0.275634050043872,-3.05758760290807
1.05065,0.266432584756552,-3.0681597688392
1.0581475,0.257233240734219,-3.07872965570275
1.065645,0.248036027194258,-3.08929725279151
1.0731425,0.238840953257511,-3.09986254949568
1.08064,0.229648027948463,-3.11042553530299
1.0881375,0.220457260195447,-3.12098619979863
1.095635,0.211268658830847,-3.13154453266535
1.1031325,0.202082232591326,3.14108478349616
1.11063,0.192897990118051,3.13053114444892
1.1181275,0.183715939956938,3.11997986739716
1.125625,0.174536090558902,3.10943096226804
1.1331225,0.165358450280119,3.09888443889121
1.14062,0.156183027382294,3.08834030699891
1.1481175,0.147009830032948,3.07779857622596
1.155615,0.137838866305703,3.06725925610985
1.1631125,0.128670144180585,3.05672235609076
1.17061,0.119503671544332,3.04618788551172
1.1781075,0.110339456190711,3.03565585361858
1.185605,0.101177505820849,3.0251262695602
1.1931025,0.0920178280435669,3.0145991423885
1.2006,0.0828604303757226,3.00407448105855
1.2080975,0.0737053202425678,2.99355229442874
1.215595,0.0645525049781085,2.98303259126086
1.2230925,0.0554019918254745,2.97251538022028
1.23059,0.0462537879372983,2.96200066987602
1.2380875,0.0371079003761021,2.95148846870098
1.245585,0.0279643361146897,2.94097878507204
1.2530825,0.0188231020365499,2.93047162727025
1.26058,0.00968420493626505,2.91996700348101
1.2680775,0.000547651519927931,2.90946492179424
1.275575,-0.00858655159443501,2.89896539020458
1.2830725,-0.0177183978764327,2.88846841661156
1.29057,-0.0268478808828721,2.87797400881985
1.2980675,-0.035974994257313,2.86748217453944
1.305565,-0.0450997317296183,2.85699292138587
1.3130625,-0.0542220871154954,2.84650625688047
1.32056,-0.0633420543160334,2.83602218845055
1.3280575,-0.0724596273172335,2.8255407234297
1.335555,-0.0815748001895328,2.81506186905803
1.3430525,-0.0906875670873234,2.80458563248236
1.35055,-0.0997979222484647,2.79411202075659
1.3580475,-0.108905859993791,2.78364104084186
1.365545,-0.118011374726615,2.77317269960692
1.3730425,-0.127114460932222,2.76270700382835
1.38054,-0.136215113177366,2.75224396019089
1.3880375,-0.145313326109752,2.74178357528769
1.395535,-0.154409094457522,2.73132585562067
1.4030325,-0.163502413028733,2.72087080760079
1.41053,-0.172593276710828,2.71041843754836
1.4180275,-0.181681680470107,2.69996875169339
1.425525,-0.190767619351196,2.68952175617591
1.4330225,-0.199851088476499,2.67907745704626
1.44052,-0.208932083045666,2.6686358602655
1.4480175,-0.218010598335042,2.65819697170569
1.455515,-0.227086629697118,2.64776079715027
1.4630125,-0.236160172559979,2.63732734229442
1.47051,-0.24523122242675,2.62689661274539
1.4780075,-0.254299774875035,2.61646861402291
1.485505,-0.263365825556357,2.60604335155949
1.4930025,-0.272429370195593,2.5956208307009
1.5005,-0.28149040459041,2.58520105670642
1.5079975,-0.290548924610694,2.57478403474936
1.515495,-0.299604926197978,2.56436976991732
1.5229925,-0.308658405364875,2.5539582672127
1.53049,-0.317709358194493,2.543549531553
1.5379875,-0.32675778083987,2.53314356777131
1.545485,-0.335803669523387,2.52274038061662
1.5529825,-0.344847020536192,2.51233997475433
1.56048,-0.35388783023762,2.5019423547666
1.5679775,-0.36292609505461,2.49154752515277
1.575475,-0.37196181148112,2.48115549032984
1.5829725,-0.380994976077549,2.47076625463282
1.59047,-0.390025585470146,2.46037982231519
1.5979675,-0.399053636350429,2.44999619754937
1.605465,-0.408079125474599,2.4396153844271
1.6129625,-0.417102049662955,2.4292373869599
1.62046,-0.426122405799305,2.41886220907953
1.6279575,-0.435140190830386,2.4084898546384
1.635455,-0.444155401765274,2.39812032741006
1.6429525,-0.4531680356748,2.38775363108961
1.65045,-0.462178089690966,2.37738976929419
1.6579475,-0.471185561006361,2.3670287455634
1.665445,-0.480190446873577,2.3566705633598
1.6729425,-0.489192744604626,2.34631522606932
1.68044,-0.498192451570361,2.33596273700177
1.6879375,-0.507189565199893,2.32561309939129
1.695435,-0.516184082980012,2.31526631639681
1.7029325,-0.525176002454611,2.30492239110251
1.71043,-0.534165321224109,2.29458132651832
1.7179275,-0.543152036944878,2.28424312558036
1.725425,-0.552136147328666,2.27390779115144
1.7329225,-0.56111765014203,2.26357532602152
1.74042,-0.570096543205767,2.25324573290819
1.7479175,-0.579072824394348,2.24291901445716
1.755415,-0.588046491635349,2.23259517324271
1.7629125,-0.597017542908895,2.2222742117682
1.77041,-0.605985976247096,2.21195613246653
1.7779075,-0.614951789733495,2.20164093770064
1.785405,-0.623914981502508,2.19132862976397
1.7929025,-0.632875549738879,2.18101921088097
1.8004,-0.641833492677127,2.17071268320756
1.8078975,-0.650788808601005,2.1604090488316
1.815395,-0.659741495842954,2.15010830977343
1.8228925,-0.668691552783568,2.13981046798629
1.83039,-0.677638977851058,2.12951552535686
1.8378875,-0.68658376952072,2.11922348370569
1.845385,-0.695525926314405,2.10893434478772
1.8528825,-0.704465446800002,2.09864811029276
1.86038,-0.713402329590907,2.08836478184596
1.8678775,-0.722336573345519,2.07808436100828
1.875375,-0.731268176766717,2.06780684927703
1.8828725,-0.740197138601358,2.05753224808627
1.89037,-0.749123457639772,2.04726055880735
1.8978675,-0.758047132715262,2.03699178274938
1.905365,-0.76696816270361,2.02672592115967
1.9128625,-0.775886546522585,2.01646297522427
1.92036,-0.784802283131458,2.00620294606838
1.9278575,-0.793715371530522,1.99594583475688
1.935355,-0.802625810760616,1.98569164229478
1.9428525,-0.811533599902648,1.97544036962766
1.95035,-0.820438738077139,1.96519201764221
1.9578475,-0.829341224443753,1.95494658716663
1.965345,-0.838241058200843,1.94470407897116
1.9728425,-0.847138238585003,1.93446449376849
1.98034,-0.85603276487062,1.92422783221424
1.9878375,-0.864924636369435,1.91399409490743
1.995335,-0.873813852430106,1.90376328239095
2.0028325,-0.882700412437783,1.89353539515199
2.01033,-0.891584315813681,1.88331043362249
2.0178275,-0.900465562014664,1.87308839817963
2.025325,-0.909344150532832,1.86286928914625
2.0328225,-0.918220080895117,1.85265310679129
2.04032,-0.927093352662879,1.84243985133025
2.0478175,-0.935963965431517,1.83222952292566
2.055315,-0.944831918830075,1.82202212168743
2.0628125,-0.953697212520865,1.81181764767339
2.07031,-0.962559846199089,1.80161610088964
2.0778075,-0.971419819592467,1.79141748129103
2.085305,-0.980277132460879,1.78122178878158
2.0928025,-0.989131784596003,1.77102902321487
2.1003,-0.997983775820966,1.76083918439449
2.1077975,-1.00683310599,1.75065227207445
2.115295,-1.01567977498811,1.7404682859596
2.1227925,-1.02452378273073,1.73028722570601
2.13029,-1.0333651291634,1.72010909092141
2.1377875,-1.04220381426148,1.70993388116557
2.145285,-1.05103983802979,1.69976159595071
2.1527825,-1.05987320050232,1.6895922347419
2.16028,-1.06870390174198,1.67942579695742
2.1677775,-1.07753194184023,1.66926228196917
2.175275,-1.08635732091686,1.65910168910308
2.1827725,-1.09518003911968,1.6489440176394
2.19027,-1.10400009662427,1.63878926681319
2.1977675,-1.11281749363369,1.6286374358146
2.205265,-1.12163223037826,1.61848852378927
2.2127625,-1.13044430711528,1.60834252983868
2.22026,-1.1392537241288,1.59819945302054
2.2277575,-1.1480604817294,1.58805929234911
2.235255,-1.15686458025393,1.57792204679552
2.2427525,-1.16566602006531,1.56778771528821
2.25025,-1.17446480155234,1.55765629671314
2.2577475,-1.18326092512944,1.54752778991425
2.265245,-1.19205439123649,1.5374021936937
2.2727425,-1.20084520033864,1.52727950681221
2.28024,-1.20963335292609,1.51715972798944
2.2877375,-1.21841884951398,1.50704285590421
2.295235,-1.22720169064214,1.49692888919488
2.3027325,-1.23598187687499,1.48681782645965
2.31023,-1.24475940880134,1.47670966625681
2.3177275,-1.25353428703431,1.46660440710508
2.325225,-1.26230651221109,1.45650204748391
2.3327225,-1.27107608499291,1.4464025858337
2.34022,-1.27984300606484,1.43630602055615
2.3477175,-1.28860727613572,1.4262123500145
2.355215,-1.29736889593802,1.41612157253379
2.3627125,-1.30612786622774,1.40603368640116
2.37021,-1.31488418778434,1.39594868986607
2.3777075,-1.32363786141063,1.38586658114056
2.385205,-1.3323888879327,1.37578735839952
2.3927025,-1.34113726819982,1.36571101978091
2.4002,-1.34988300308441,1.35563756338602
2.4076975,-1.35862609348198,1.34556698727965
2.415195,-1.36736654031106,1.33549928949041
2.4226925,-1.37610434451315,1.32543446801087
2.43019,-1.3848395070527,1.31537252079783
2.4376875,-1.39357202891711,1.30531344577248
2.445185,-1.40230191111665,1.29525724082065
2.4526825,-1.41102915468447,1.28520390379297
2.46018,-1.41975376067663,1.27515343250509
2.4676775,-1.42847573017205,1.26510582473784
2.475175,-1.43719506427253,1.25506107823744
2.4826725,-1.4459117641028,1.24501919071565
2.49017,-1.45462583081049,1.23498015984997
2.4976675,-1.46333726556621,1.22494398328377
2.505165,-1.47204606956356,1.21491065862645
2.5126625,-1.48075224401917,1.20488018345364
2.52016,-1.48945579017277,1.1948525553073
2.5276575,-1.49815670928726,1.18482777169585
2.535155,-1.50685500264872,1.17480583009438
2.5426525,-1.51555067156656,1.16478672794469
2.55015,-1.52424371737355,1.15477046265548
2.5576475,-1.53293414142591,1.14475703160243
2.565145,-1.54162194510344,1.13474643212834
2.5726425,-1.55030712980958,1.12473866154322
2.58014,-1.55898969697154,1.1147337171244
2.5876375,-1.56766964804043,1.10473159611664
2.595135,-1.57634698449134,1.09473229573217
2.6026325,-1.58502170782353,1.08473581315084
2.61013,-1.5936938195605,1.07474214552016
2.6176275,-1.60236332125021,1.0647512899554
2.625125,-1.61103021446514,1.05476324353962
2.6326225,-1.61969450080254,1.04477800332377
2.64012,-1.62835618188452,1.03479556632673
2.6476175,-1.63701525935827,1.02481592953538
2.655115,-1.6456717348962,1.01483908990462
2.6626125,-1.65432561019616,1.00486504435743
2.67011,-1.6629768869816,0.994893789784892
2.6776075,-1.67162556700179,0.984925323046246
2.685105,-1.68027165203202,0.97495964096889
2.6926025,-1.68891514387377,0.964996740348412
2.7001,-1.69755604435501,0.955036617948601
2.7075975,-1.70619435533033,0.945079270501461
2.715095,-1.71483007868124,0.93512469470721
2.7225925,-1.72346321631637,0.925172887234286
2.73009,-1.7320937701717,0.915223844719336
2.7375875,-1.74072174221086,0.905277563767208
2.745085,-1.74934713442533,0.895334040950933
2.7525825,-1.75796994883472,0.885393272811711
2.76008,-1.76659018748704,0.875455255858876
2.7675775,-1.77520785245897,0.865519986569874
2.775075,-1.78382294585613,0.855587461390223
2.7825725,-1.79243546981338,0.845657676733478
2.79007,-1.80104542649508,0.835730628981182
2.7975675,-1.80965281809542,0.825806314482818
2.805065,-1.81825764683868,0.815884729555759
2.8125625,-1.82685991497958,0.805965870485206
2.82006,-1.83545962480357,0.796049733524126
2.8275575,-1.84405677862713,0.786136314893189
2.835055,-1.85265137879812,0.776225610780694
2.8425525,-1.86124342769611,0.766317617342492
2.85005,-1.86983292773267,0.756412330701911
2.8575475,-1.87841988135176,0.746509746949667
2.865045,-1.88700429103005,0.736609862143783
2.8725425,-1.89558615927727,0.726712672309493
2.88004,-1.90416548863656,0.716818173439146
2.8875375,-1.91274228168482,0.706926361492112
2.895035,-1.92131654103311,0.697037232394673
2.9025325,-1.92988826932698,0.687150782039921
2.91003,-1.93845746924684,0.677267006287647
2.9175275,-1.94702414350839,0.667385900964225
2.925025,-1.95558829486292,0.657507461862499
2.9325225,-1.96414992609778,0.647631684741661
2.94002,-1.97270904003671,0.637758565327127
2.9475175,-1.98126563954027,0.627888099310411
2.955015,-1.98981972750622,0.618020282348997
2.9625125,-1.99837130686993,0.608155110066206
2.97001,-2.00692038060479,0.59829257805106
2.9775075,-2.01546695172264,0.588432681858144
2.985005,-2.02401102327413,0.578575417007465
2.9925025,-2.03255259834922,0.568720778984312
3,-2.04109168007753,0.558868763239107

