"Freq [GHz]","re(Zo(antenna))*(sqrt((1+re(S(antenna,antenna)))**2+im(S(antenna,antenna))**2))/(sqrt((1-re(S(antenna,antenna)))**2+im(S(antenna,antenna))**2)) []","atan(im(S(antenna,antenna))/(1+re(S(antenna,antenna))))-atan((-im(S(antenna,antenna))/(1-re(S(antenna,antenna))))) [deg]"
0.001,0.0134240269267702,89.9999983510836
0.0084975,0.114070694768442,89.9999859887753
0.015995,0.214717485517732,89.999973619715
0.0234925,0.315364507681447,89.9999612593094
0.03099,0.416011869713489,89.9999488970668
0.0384875,0.516659680094769,89.9999365349338
0.045985,0.617308047312445,89.9999241730922
0.0534825,0.717957079765621,89.9999118115057
0.06098,0.818606886413745,89.9998994500111
0.0684775,0.91925757525694,89.9998870883352
0.075975,1.01990925509555,89.9998747260846
0.0834725,1.12056203451025,89.9998623627362
0.09097,1.22121602214551,89.9998499976283
0.0984675,1.32187132695642,89.9998376299483
0.105965,1.42252805013475,89.9998252659718
0.1134625,1.52318631820957,89.9998129029921
0.12096,1.62384622387394,89.9998005395033
0.1284575,1.72450788009827,89.9997881755023
0.135955,1.82517139559106,89.9997758109799
0.1434525,1.92583687895474,89.9997634459239
0.15095,2.02650443877904,89.9997510803195
0.1584475,2.12717418365623,89.9997387141491
0.165945,2.22784622218549,89.9997263473944
0.1734425,2.3285206629747,89.9997139800345
0.18094,2.42919761464146,89.9997016120485
0.1884375,2.52987718581378,89.9996892434141
0.195935,2.63055948513072,89.9996768741083
0.2034325,2.73124462124288,89.9996645041075
0.21093,2.8319327028129,89.9996521333876
0.2184275,2.93262383851599,89.9996397619239
0.225925,3.0333181370404,89.9996273896914
0.2334225,3.13401570708787,89.9996150166645
0.24092,3.2347166573741,89.9996026428177
0.2484175,3.33542109662928,89.9995902681246
0.255915,3.43612913359847,89.9995778925591
0.2634125,3.53684087704216,89.9995655160945
0.27091,3.63755643573666,89.9995531387036
0.2784075,3.7382759184746,89.9995407603595
0.285905,3.83899943406543,89.9995283810346
0.2934025,3.93972709133582,89.9995160007015
0.3009,4.04045899913018,89.999503619332
0.3083975,4.14119526631112,89.9994912368983
0.315895,4.24193600175987,89.9994788533718
0.3233925,4.34268131437684,89.9994664687241
0.33089,4.44343131308198,89.9994540829264
0.3383875,4.54418610681535,89.9994416959497
0.345885,4.6449458045375,89.9994293077648
0.3533825,4.74571051522999,89.9994169183423
0.36088,4.84648034789586,89.9994045276527
0.3683775,4.94725541156007,89.9993921356658
0.375875,5.04803581526999,89.9993797423518
0.3833725,5.14882166809586,89.9993673476803
0.39087,5.24961307913127,89.9993549516209
0.3983675,5.3504101574936,89.9993425541426
0.405865,5.45121301232455,89.9993301552147
0.4133625,5.55202175279053,89.9993177548059
0.42086,5.6528364880832,89.9993053528848
0.4283575,5.7536573274199,89.9992929494196
0.435855,5.85448438004413,89.9992805443786
0.4433525,5.95531775522604,89.9992681377297
0.45085,6.05615756226287,89.9992557294404
0.4583475,6.15700391047944,89.9992433194781
0.465845,6.25785690922863,89.99923090781
0.4733425,6.35871666789182,89.9992184944031
0.48084,6.4595832958794,89.9992060792239
0.4883375,6.56045690263122,89.999193662239
0.495835,6.66133759761706,89.9991812434145
0.5033325,6.76222549033713,89.9991688227164
0.51083,6.86312069032252,89.9991564001103
0.5183275,6.96402330713566,89.9991439755617
0.525825,7.06493345037084,89.9991315490357
0.5333225,7.16585122965464,89.9991191204973
0.54082,7.26677675464644,89.999106689911
0.5483175,7.36771013503886,89.9990942572413
0.555815,7.46865148055826,89.9990818224524
0.5633125,7.56960090096521,89.9990693855082
0.57081,7.67055850605498,89.9990569463721
0.5783075,7.77152440565797,89.9990445050075
0.585805,7.87249870964025,89.9990320613777
0.5933025,7.97348152790399,89.9990196154453
0.6008,8.07447297038796,89.9990071671729
0.6082975,8.17547314706801,89.9989947165228
0.615795,8.27648216795751,89.998982263457
0.6232925,8.37750014310791,89.9989698079371
0.63079,8.47852718260911,89.9989573499249
0.6382875,8.57956339659006,89.9989448893812
0.645785,8.68060889521912,89.9989324262671
0.6532825,8.78166378870465,89.9989199605433
0.66078,8.8827281872954,89.9989074921701
0.6682775,8.98380220128105,89.9988950211075
0.675775,9.08488594099269,89.9988825473155
0.6832725,9.18597951680325,89.9988700707536
0.69077,9.28708303912804,89.998857591381
0.6982675,9.3881966184252,89.9988451091568
0.705765,9.48932036519621,89.9988326240397
0.7132625,9.59045438998636,89.998820135988
0.72076,9.69159880338522,89.9988076449601
0.7282575,9.79275371602712,89.9987951509137
0.735755,9.89391923859171,89.9987826538067
0.7432525,9.99509548180434,89.9987701535962
0.75075,10.0962825564366,89.9987576502393
0.7582475,10.1974805733069,89.998745143693
0.765745,10.2986896432807,89.9987326339138
0.7732425,10.3999098772712,89.9987201208579
0.78074,10.5011413862399,89.9987076044813
0.7882375,10.6023842811969,89.9986950847398
0.795735,10.7036386732015,89.9986825615889
0.8032325,10.8049046733626,89.9986700349838
0.81073,10.9061823928393,89.9986575048794
0.8182275,11.0074719428412,89.9986449712304
0.825725,11.1087734346293,89.9986324339913
0.8332225,11.2100869795161,89.9986198931163
0.84072,11.311412688866,89.9986073485592
0.8482175,11.4127506740964,89.9985948002737
0.855715,11.5141010466775,89.9985822482133
0.8632125,11.6154639181332,89.9985696923311
0.87071,11.7168394000416,89.9985571325799
0.8782075,11.8182276040352,89.9985445689126
0.885705,11.9196286418018,89.9985320012816
0.8932025,12.0210426250845,89.9985194296389
0.9007,12.1224696656829,89.9985068539366
0.9081975,12.2239098754528,89.9984942741264
0.915695,12.3253633663072,89.9984816901598
0.9231925,12.4268302502169,89.9984691019881
0.93069,12.5283106392104,89.9984565095621
0.9381875,12.6298046453751,89.9984439128329
0.945685,12.7313123808573,89.9984313117509
0.9531825,12.8328339578631,89.9984187062665
0.96068,12.9343694886584,89.99840609633
0.9681775,13.03591908557,89.9983934818912
0.975675,13.1374828609856,89.9983808628999
0.9831725,13.2390609273547,89.9983682393056
0.99067,13.3406533971887,89.9983556110578
0.9981675,13.4422603830617,89.9983429781055
1.005665,13.5438819976111,89.9983303403976
1.0131625,13.6455183535377,89.9983176978831
1.02066,13.7471695636066,89.9983050505104
1.0281575,13.8488357406476,89.998292398228
1.035655,13.9505169975556,89.9982797409842
1.0431525,14.0522134472911,89.9982670787269
1.05065,14.153925202881,89.9982544114042
1.0581475,14.2556523774188,89.9982417389638
1.065645,14.3573950840653,89.9982290613532
1.0731425,14.4591534360489,89.99821637852
1.08064,14.5609275466664,89.9982036904114
1.0881375,14.6627175292834,89.9981909969746
1.095635,14.7645234973347,89.9981782981566
1.1031325,14.8663455643251,89.9981655939044
1.11063,14.9681838438294,89.9981528841646
1.1181275,15.0700384494937,89.998140168884
1.125625,15.1719094950352,89.998127448009
1.1331225,15.273797094243,89.9981147214862
1.14062,15.3757013609788,89.9981019892619
1.1481175,15.4776224091771,89.9980892512823
1.155615,15.579560352846,89.9980765074935
1.1631125,15.6815153060676,89.9980637578417
1.17061,15.7834873829985,89.9980510022728
1.1781075,15.8854766978703,89.9980382407326
1.185605,15.9874833649904,89.9980254731671
1.1931025,16.0895074987421,89.9980126995221
1.2006,16.1915492135855,89.9979999197432
1.2080975,16.293608624058,89.9979871337761
1.215595,16.3956858447746,89.9979743415666
1.2230925,16.4977809904284,89.9979615430602
1.23059,16.5998941757917,89.9979487382024
1.2380875,16.7020255157159,89.9979359269389
1.245585,16.8041751251323,89.9979231092151
1.2530825,16.9063431190526,89.9979102849766
1.26058,17.0085296125697,89.9978974541689
1.2680775,17.1107347208576,89.9978846167376
1.275575,17.2129585591728,89.9978717726282
1.2830725,17.3152012428541,89.9978589217862
1.29057,17.4174628873235,89.9978460641573
1.2980675,17.5197436080868,89.9978331996871
1.305565,17.622043520734,89.9978203283211
1.3130625,17.7243627409398,89.9978074500053
1.32056,17.8267013844644,89.9977945646852
1.3280575,17.9290595671538,89.9977816723067
1.335555,18.0314374049405,89.9977687728157
1.3430525,18.1338350138439,89.9977558661583
1.35055,18.2362525099712,89.9977429522803
1.3580475,18.3386900095176,89.997730031128
1.365545,18.4411476287668,89.9977171026476
1.3730425,18.5436254840921,89.9977041667854
1.38054,18.6461236919564,89.9976912234879
1.3880375,18.748642368913,89.9976782727017
1.395535,18.8511816316062,89.9976653143733
1.4030325,18.9537415967717,89.9976523484498
1.41053,19.0563223812374,89.997639374878
1.4180275,19.1589241019237,89.9976263936051
1.425525,19.2615468758445,89.9976134045783
1.4330225,19.3641908201072,89.9976004077451
1.44052,19.4668560519136,89.997587403053
1.4480175,19.5695426885607,89.99757439045
1.455515,19.6722508474407,89.9975613698839
1.4630125,19.7749806460422,89.9975483413029
1.47051,19.8777322019501,89.9975353046554
1.4780075,19.980505632847,89.99752225989
1.485505,20.0833010565131,89.9975092069554
1.4930025,20.1861185908269,89.9974961458006
1.5005,20.2889583537663,89.997483076375
1.5079975,20.3918204634084,89.997469998628
1.515495,20.4947050379307,89.9974569125092
1.5229925,20.5976121956115,89.9974438179687
1.53049,20.7005420548301,89.9974307149567
1.5379875,20.8034947340682,89.9974176034238
1.545485,20.9064703519095,89.9974044833205
1.5529825,21.0094690270408,89.997391354598
1.56048,21.1124908782525,89.9973782172077
1.5679775,21.2155360244387,89.9973650711011
1.575475,21.3186045845973,89.9973519162302
1.5829725,21.4216966778299,89.9973387525472
1.59047,21.5248124233405,89.9973255800046
1.5979675,21.6279519404301,89.9973123985552
1.605465,21.7311153484815,89.9972992081523
1.6129625,21.8343027668874,89.9972860087494
1.62046,21.9375143144566,89.9972728003003
1.6279575,22.0407501288785,89.9972595827591
1.635455,22.1440102870482,89.9972463560806
1.6429525,22.2472949448848,89.9972331202193
1.65045,22.3506042131759,89.9972198751308
1.6579475,22.4539382117223,89.9972066207706
1.665445,22.5572970607433,89.9971933570945
1.6729425,22.6606808806297,89.9971800840591
1.68044,22.7640897919037,89.9971668016211
1.6879375,22.8675239152087,89.9971535097375
1.695435,22.9709833713065,89.9971402083659
1.7029325,23.074468281076,89.9971268974643
1.71043,23.1779787655133,89.9971135769908
1.7179275,23.2815149457322,89.9971002469042
1.725425,23.3850769429643,89.9970869071637
1.7329225,23.4886648785597,89.9970735577288
1.74042,23.5922788739878,89.9970601985594
1.7479175,23.6959190508374,89.9970468296159
1.755415,23.799585530818,89.997033450859
1.7629125,23.9032784357597,89.9970200622501
1.77041,24.0069978876148,89.9970066637506
1.7779075,24.1107440084573,89.9969932553228
1.785405,24.2145169204847,89.996979836929
1.7929025,24.3183167460179,89.9969664085324
1.8004,24.4221436075023,89.9969529700961
1.8078975,24.5259976275082,89.996939521584
1.815395,24.6298789287316,89.9969260629605
1.8228925,24.733787633995,89.9969125941901
1.83039,24.8377238662481,89.9968991152381
1.8378875,24.9416877485681,89.99688562607
1.845385,25.0456794041609,89.9968721266518
1.8528825,25.1496989563616,89.9968586169501
1.86038,25.2537465286351,89.9968450969316
1.8678775,25.357822244577,89.9968315665639
1.875375,25.4619262279143,89.9968180258148
1.8828725,25.5660586025058,89.9968044746524
1.89037,25.6702194923433,89.9967909130454
1.8978675,25.774409021552,89.996777340963
1.905365,25.8786273143914,89.9967637583747
1.9128625,25.9828744952558,89.9967501652506
1.92036,26.0871506886754,89.9967365615611
1.9278575,26.1914560193167,89.9967229472771
1.935355,26.2957906119834,89.9967093223698
1.9428525,26.4001545916172,89.996695686811
1.95035,26.5045480832983,89.9966820405727
1.9578475,26.6089712122465,89.9966683836277
1.965345,26.7134241038217,89.9966547159487
1.9728425,26.8179068835249,89.9966410375093
1.98034,26.9224196769988,89.9966273482832
1.9878375,27.0269626100284,89.9966136482445
1.995335,27.1315358085422,89.9965999373679
2.0028325,27.2361393986126,89.9965862156281
2.01033,27.3407735064572,89.9965724830007
2.0178275,27.4454382584388,89.9965587394612
2.025325,27.5501337810669,89.9965449849859
2.0328225,27.6548602009983,89.9965312195509
2.04032,27.7596176450376,89.9965174431332
2.0478175,27.8644062401385,89.9965036557098
2.055315,27.9692261134044,89.9964898572581
2.0628125,28.074077392089,89.9964760477559
2.07031,28.1789602035976,89.9964622271812
2.0778075,28.2838746754874,89.9964483955125
2.085305,28.3888209354688,89.9964345527283
2.0928025,28.493799111406,89.9964206988077
2.1003,28.598809331318,89.9964068337298
2.1077975,28.7038517233791,89.996392957474
2.115295,28.8089264159204,89.9963790700201
2.1227925,28.91403353743,89.996365171348
2.13029,29.0191732165544,89.9963512614379
2.1377875,29.1243455820989,89.9963373402702
2.145285,29.2295507630289,89.9963234078254
2.1527825,29.3347888884708,89.9963094640844
2.16028,29.4400600877124,89.9962955090278
2.1677775,29.5453644902044,89.996281542637
2.175275,29.6507022255611,89.996267564893
2.1827725,29.756073423561,89.9962535757773
2.19027,29.8614782141484,89.9962395752712
2.1977675,29.9669167274338,89.9962255633563
2.205265,30.0723890936948,89.9962115400142
2.2127625,30.1778954433778,89.9961975052266
2.22026,30.2834359070978,89.9961834589753
2.2277575,30.3890106156405,89.996169401242
2.235255,30.4946196999626,89.9961553320083
2.2427525,30.6002632911929,89.9961412512563
2.25025,30.7059415206334,89.9961271589675
2.2577475,30.8116545197605,89.9961130551237
2.265245,30.9174024202256,89.9960989397065
2.2727425,31.0231853538562,89.9960848126975
2.28024,31.1290034526573,89.9960706740783
2.2877375,31.2348568488121,89.9960565238303
2.295235,31.3407456746832,89.9960423619346
2.3027325,31.4466700628136,89.9960281883724
2.31023,31.5526301459278,89.9960140031247
2.3177275,31.658626056933,89.9959998061723
2.325225,31.76465792892,89.9959855974958
2.3327225,31.8707258951645,89.9959713770757
2.34022,31.9768300891279,89.995957144892
2.3477175,32.0829706444591,89.9959429009248
2.355215,32.1891476949949,89.9959286451537
2.3627125,32.2953613747617,89.9959143775581
2.37021,32.4016118179763,89.9959000981171
2.3777075,32.5078991590473,89.9958858068097
2.385205,32.6142235325765,89.9958715036143
2.3927025,32.7205850733596,89.9958571885091
2.4002,32.826983916388,89.9958428614719
2.4076975,32.9334201968495,89.9958285224804
2.415195,33.0398940501302,89.9958141715116
2.4226925,33.1464056118152,89.9957998085423
2.43019,33.2529550176902,89.995785433549
2.4376875,33.3595424037427,89.9957710465077
2.445185,33.4661679061638,89.995756647394
2.4526825,33.5728316613485,89.9957422361833
2.46018,33.6795338058984,89.9957278128503
2.4676775,33.7862744766221,89.9957133773696
2.475175,33.893053810537,89.9956989297153
2.4826725,33.9998719448708,89.995684469861
2.49017,34.1067290170627,89.9956699977802
2.4976675,34.2136251647654,89.9956555134458
2.505165,34.3205605258458,89.9956410168304
2.5126625,34.4275352383874,89.9956265079062
2.52016,34.5345494406912,89.9956119866452
2.5276575,34.6416032712778,89.9955974530191
2.535155,34.7486968688885,89.9955829069991
2.5426525,34.8558303724875,89.9955683485565
2.55015,34.9630039212629,89.9955537776621
2.5576475,35.0702176546292,89.9955391942865
2.565145,35.1774717122282,89.9955245984004
2.5726425,35.2847662339315,89.9955099899741
2.58014,35.3921013598418,89.9954953689781
2.5876375,35.499477230295,89.9954807353829
2.595135,35.6068939858617,89.9954660891588
2.6026325,35.7143517673496,89.9954514302765
2.61013,35.8218507158049,89.9954367587069
2.6176275,35.9293909725148,89.995422074421
2.625125,36.0369726790084,89.9954073773904
2.6326225,36.1445959770595,89.9953926675872
2.64012,36.2522610086872,89.9953779449838
2.6476175,36.3599679161558,89.9953632095537
2.655115,36.4677168419703,89.9953484612709
2.6626125,36.5755079288435,89.9953337001106
2.67011,36.6833413193407,89.995318926049
2.6776075,36.791217161422,89.9953041390637
2.685105,36.8991355896229,89.9952893391336
2.6926025,37.0070967539969,89.9952745262393
2.7001,37.1151007974481,89.9952597003634
2.7075975,37.2231478642288,89.9952448614903
2.715095,37.3312380989363,89.9952300096069
2.7225925,37.4393716464576,89.9952151447025
2.73009,37.5475486519619,89.9952002667693
2.7375875,37.6557692609003,89.9951853758026
2.745085,37.764033619008,89.995170471801
2.7525825,37.8723418723066,89.995155554767
2.76008,37.9806941671074,89.9951406247071
2.7675775,38.0890906500144,89.9951256816323
2.775075,38.1975314679277,89.9951107255585
2.7825725,38.3060167680471,89.9950957565069
2.79007,38.4145466978754,89.9950807745046
2.7975675,38.5231214052224,89.9950657795848
2.805065,38.6317410382085,89.9950507717877
2.8125625,38.740405745269,89.9950357511609
2.82006,38.8491156751579,89.9950207177599
2.8275575,38.9578709769523,89.995005671649
2.835055,39.0666718000566,89.9949906129019
2.8425525,39.1755182942074,89.9949755416022
2.85005,39.2844106094781,89.9949604578446
2.8575475,39.3933488962835,89.9949453617358
2.865045,39.5023333053852,89.9949302533948
2.8725425,39.6113639878968,89.9949151329546
2.88004,39.7204410952892,89.9949000005627
2.8875375,39.8295647793965,89.9948848563826
2.895035,39.9387351924217,89.9948697005948
2.9025325,40.0479524869428,89.9948545333981
2.91003,40.1572168159195,89.9948393550111
2.9175275,40.2665283326993,89.9948241656735
2.925025,40.375887191025,89.9948089656478
2.9325225,40.4852935450413,89.9947937552206
2.94002,40.5947475493029,89.9947785347051
2.9475175,40.7042493587817,89.9947633044423
2.955015,40.8137991288755,89.9947480648035
2.9625125,40.9233970154163,89.9947328161923
2.97001,41.0330431746791,89.9947175590471
2.9775075,41.1427377633915,89.9947022938433
2.985005,41.2524809387433,89.9946870210965
2.9925025,41.3622728583965,89.9946717413649
3,41.4721136804966,89.9946564552527

